2024-07-28 12:20:11,019 INFO main(27) *************************************************
2024-07-28 12:20:11,031 INFO create_socket(500) Created a socket
2024-07-28 12:20:22,736 INFO main(27) *************************************************
2024-07-28 12:20:22,747 INFO create_socket(500) Created a socket
2024-07-28 12:20:37,544 INFO main(27) *************************************************
2024-07-28 12:20:37,556 INFO create_socket(500) Created a socket
2024-07-28 12:20:37,577 INFO main(33)   can0  09F80201   [8]  FF FC F1 B7 19 00 FF FF
2024-07-28 12:20:37,578 INFO main(33)   can0  0DFE1101   [8]  20 0E C0 86 F1 B7 19 00
2024-07-28 12:20:37,579 INFO main(33)   can0  0DFE1101   [8]  21 FF FF FF FF 19 B7 18
2024-07-28 12:20:37,579 INFO main(33)   can0  0DFE1101   [8]  22 00 FF FF FF FF FF FF
2024-07-28 12:20:37,580 INFO main(33)   can0  09F80101   [8]  5E 0C 76 18 EF F6 2B D4
2024-07-28 12:20:37,677 INFO main(33)   can0  0DF90301   [8]  FF 7F FF FF FF 7F FF FF
2024-07-28 12:20:37,678 INFO main(33)   can0  09F80101   [8]  5E 0C 76 18 EF F6 2B D4
2024-07-28 12:20:37,679 INFO main(33)   can0  09FD0273   [8]  00 07 01 9A AE FA FF FF
2024-07-28 12:20:37,694 INFO main(33)   can0  09F10D73   [8]  FF F8 FF FF 00 00 FF FF
2024-07-28 12:20:37,694 INFO main(33)   can0  1CFF4F73   [8]  3B 9F 00 FF FF 99 9F FF
2024-07-28 12:20:37,696 INFO main(33)   can0  1DEFFF73   [8]  60 16 3B 9F F0 81 9C 21
2024-07-28 12:20:37,696 INFO main(33)   can0  1DEFFF73   [8]  61 1B 00 00 00 00 00 00
2024-07-28 12:20:37,697 INFO main(33)   can0  1DEFFF73   [8]  62 00 00 00 00 00 01 00
2024-07-28 12:20:37,698 INFO main(33)   can0  1DEFFF73   [8]  63 00 00 FF FF FF FF FF
2024-07-28 12:20:37,698 INFO main(33)   can0  09F11273   [8]  00 99 9F FF 7F FF 7F FD
2024-07-28 12:20:37,775 INFO main(33)   can0  19F51373   [8]  80 0E FF FF FF FF FF FF
2024-07-28 12:20:37,775 INFO main(33)   can0  19F51373   [8]  81 44 06 35 02 00 00 00
2024-07-28 12:20:37,776 INFO main(33)   can0  19F51373   [8]  82 00 FF FF FF FF FF FF
2024-07-28 12:20:37,777 INFO main(33)   can0  1DFF6773   [8]  A0 0B 3B 9F 03 00 04 E2
2024-07-28 12:20:37,777 INFO main(33)   can0  1DFF6773   [8]  A1 94 0F 19 09 09 FF FF
2024-07-28 12:20:37,778 INFO main(33)   can0  09F80201   [8]  FF FC A0 B8 19 00 FF FF
2024-07-28 12:20:37,778 INFO main(33)   can0  1DFF6773   [8]  C0 0B 3B 9F 03 01 04 E2
2024-07-28 12:20:37,779 INFO main(33)   can0  09F80101   [8]  63 0C 76 18 F1 F6 2B D4
2024-07-28 12:20:37,780 INFO main(33)   can0  1DFF6773   [8]  C1 94 0F 19 09 09 FF FF
2024-07-28 12:20:37,780 INFO main(33)   can0  19FA0601   [8]  20 0F 86 BF 01 00 00 00
2024-07-28 12:20:37,781 INFO main(33)   can0  1DFF6773   [8]  E0 0B 3B 9F 03 02 04 E2
2024-07-28 12:20:37,781 INFO main(33)   can0  19FA0601   [8]  21 00 00 00 00 00 00 00
2024-07-28 12:20:37,782 INFO main(33)   can0  1DFF6773   [8]  E1 94 0F 19 09 09 FF FF
2024-07-28 12:20:37,782 INFO main(33)   can0  19FA0601   [8]  22 00 00 FF FF FF FF FF
2024-07-28 12:20:37,878 INFO main(33)   can0  19FA0401   [8]  80 B7 15 FF 0F 05 22 33
2024-07-28 12:20:37,879 INFO main(33)   can0  19FA0401   [8]  81 F0 ED B8 0B 00 00 00
2024-07-28 12:20:37,880 INFO main(33)   can0  19FA0401   [8]  82 00 F2 06 0C 02 5C 4C
2024-07-28 12:20:37,880 INFO main(33)   can0  19FA0401   [8]  83 14 05 00 00 00 00 F1
2024-07-28 12:20:37,881 INFO main(33)   can0  19FA0401   [8]  84 07 C6 04 C5 22 F0 0A
2024-07-28 12:20:37,882 INFO main(33)   can0  19FA0401   [8]  85 00 00 00 00 F2 0B F4
2024-07-28 12:20:37,883 INFO main(33)   can0  19FA0401   [8]  86 1B 2D 44 04 10 00 00
2024-07-28 12:20:37,884 INFO main(33)   can0  19FA0401   [8]  87 00 00 F2 0D 68 21 E7
2024-07-28 12:20:37,885 INFO main(33)   can0  19FA0401   [8]  88 64 FC 08 00 00 00 00
2024-07-28 12:20:37,885 INFO main(33)   can0  19FA0401   [8]  89 F2 0F 2E 17 A0 85 E4
2024-07-28 12:20:37,886 INFO main(33)   can0  19FA0401   [8]  8A 0C 00 00 00 00 F2 12
2024-07-28 12:20:37,887 INFO main(33)   can0  19FA0401   [8]  8B E9 0A 88 CC F0 0A 00
2024-07-28 12:20:37,888 INFO main(33)   can0  19FA0401   [8]  8C 00 00 00 F2 14 D1 24
2024-07-28 12:20:37,889 INFO main(33)   can0  19FA0401   [8]  8D C5 22 54 0B 00 00 00
2024-07-28 12:20:37,889 INFO main(33)   can0  19FA0401   [8]  8E 00 F2 19 69 03 94 A1
2024-07-28 12:20:37,890 INFO main(33)   can0  19FA0401   [8]  8F 1C 0C 00 00 00 00 F2
2024-07-28 12:20:37,891 INFO main(33)   can0  19FA0401   [8]  90 1D 8B 27 E5 BE 74 0E
2024-07-28 12:20:37,892 INFO main(33)   can0  19FA0401   [8]  91 00 00 00 00 F2 1E 80
2024-07-28 12:20:37,893 INFO main(33)   can0  19FA0401   [8]  92 07 E8 37 28 0A 00 00
2024-07-28 12:20:37,893 INFO main(33)   can0  19FA0401   [8]  93 00 00 F2 21 3A 0A 5C
2024-07-28 12:20:37,894 INFO main(33)   can0  19FA0401   [8]  94 4C 00 00 00 00 00 00
2024-07-28 12:20:37,895 INFO main(33)   can0  19FA0401   [8]  95 F0 23 C6 04 DA AD 00
2024-07-28 12:20:37,896 INFO main(33)   can0  19FA0401   [8]  96 00 00 00 00 00 F0 33
2024-07-28 12:20:37,897 INFO main(33)   can0  19FA0401   [8]  97 23 15 66 99 00 00 00
2024-07-28 12:20:37,898 INFO main(33)   can0  19FA0401   [8]  98 00 00 00 F0 1A 00 00
2024-07-28 12:20:37,898 INFO main(33)   can0  19FA0401   [8]  99 CD D8 00 00 00 00 00
2024-07-28 12:20:37,899 INFO main(33)   can0  19FA0401   [8]  9A 00 F0 FF FF FF FF FF
2024-07-28 12:20:37,900 INFO main(33)   can0  09F80101   [8]  63 0C 76 18 F1 F6 2B D4
2024-07-28 12:20:37,901 INFO main(33)   can0  19F11A01   [8]  FF FF FF FF A9 F6 FF FF
2024-07-28 12:20:37,971 INFO main(33)   can0  19FB1200   [8]  80 23 18 CE AF 26 14 24
2024-07-28 12:20:37,976 INFO main(33)   can0  19FB1200   [8]  81 53 52 54 45 22 42 5C
2024-07-28 12:20:37,978 INFO main(33)   can0  09F80201   [8]  FF FC A0 B8 19 00 FF FF
2024-07-28 12:20:37,979 INFO main(33)   can0  09F80101   [8]  63 0C 76 18 F1 F6 2B D4
2024-07-28 12:20:37,981 INFO main(33)   can0  19FB1200   [8]  82 40 40 40 40 40 40 40
2024-07-28 12:20:37,986 INFO main(33)   can0  19FB1200   [8]  83 96 00 28 00 14 00 96
2024-07-28 12:20:37,991 INFO main(33)   can0  19FB1200   [8]  84 00 00 00 00 00 03 E0
2024-07-28 12:20:37,996 INFO main(33)   can0  19FB1200   [2]  85 FF
2024-07-28 12:20:38,079 INFO main(33)   can0  0DF80501   [8]  40 2B 87 DC 4D 50 EE 11
2024-07-28 12:20:38,079 INFO main(33)   can0  0DF80501   [8]  41 23 00 96 95 35 2E FF
2024-07-28 12:20:38,080 INFO main(33)   can0  0DF80501   [8]  42 B1 05 00 E6 74 2E C8
2024-07-28 12:20:38,081 INFO main(33)   can0  0DF80501   [8]  43 A1 CB F5 FF FF FF FF
2024-07-28 12:20:38,082 INFO main(33)   can0  0DF80501   [8]  44 FF FF FF 7F 13 FC 0A
2024-07-28 12:20:38,083 INFO main(33)   can0  0DF80501   [8]  45 62 00 FF 7F FF FF FF
2024-07-28 12:20:38,084 INFO main(33)   can0  0DF80501   [8]  46 7F 00 FF FF FF FF FF
2024-07-28 12:20:38,084 INFO main(33)   can0  09F80101   [8]  6F 0C 76 18 F7 F6 2B D4
2024-07-28 12:20:38,085 INFO main(33)   can0  0DF80901   [8]  DC 4D 50 EE 11 23 10 FF
2024-07-28 12:20:38,179 INFO main(33)   can0  09F80201   [8]  FF FC 94 B9 19 00 FF FF
2024-07-28 12:20:38,180 INFO main(33)   can0  09F80101   [8]  6F 0C 76 18 F7 F6 2B D4
2024-07-28 12:20:38,180 INFO main(33)   can0  0DF01001   [8]  FF FF DC 4D 50 EE 11 23
2024-07-28 12:20:38,202 INFO main(33)   can0  1DEFFF73   [8]  00 16 3B 9F F0 81 84 E6
2024-07-28 12:20:38,203 INFO main(33)   can0  1DEFFF73   [8]  01 9A 6B 00 00 00 02 08
2024-07-28 12:20:38,203 INFO main(33)   can0  1DEFFF73   [8]  02 FF FF 00 00 00 01 00
2024-07-28 12:20:38,204 INFO main(33)   can0  1DEFFF73   [8]  03 00 00 FF FF FF FF FF
2024-07-28 12:20:38,205 INFO main(33)   can0  09F11273   [8]  00 42 9F FF 7F FF 7F FD
2024-07-28 12:20:38,205 INFO main(33)   can0  09F10D73   [8]  FF F8 FF FF 00 00 FF FF
2024-07-28 12:20:38,206 INFO main(33)   can0  1CFF0873   [8]  3B 9F 00 00 14 00 FF FF
2024-07-28 12:20:38,206 INFO main(33)   can0  1CFF4F73   [8]  3B 9F 00 FF FF 42 9F FF
2024-07-28 12:20:38,280 INFO main(33)   can0  09F80101   [8]  71 0C 76 18 F9 F6 2B D4
2024-07-28 12:20:38,293 INFO main(33)   can0  1DEFFF73   [8]  20 16 3B 9F F0 81 AE 02
2024-07-28 12:20:38,293 INFO main(33)   can0  1DEFFF73   [8]  21 00 08 00 00 00 02 08
2024-07-28 12:20:38,294 INFO main(33)   can0  1DEFFF73   [8]  22 1F 09 00 00 00 01 00
2024-07-28 12:20:38,294 INFO main(33)   can0  1DEFFF73   [8]  23 00 00 FF FF FF FF FF
2024-07-28 12:20:38,319 INFO main(33)   can0  0DF50B73   [8]  00 EB 00 00 00 FF FF FF
2024-07-28 12:20:38,341 INFO main(33)   can0  09F50373   [8]  00 00 00 FF FF 00 FF FF
2024-07-28 12:20:38,367 INFO main(33)   can0  15FD0773   [8]  00 C0 AF 73 FF 7F FF FF
2024-07-28 12:20:38,380 INFO main(33)   can0  09F80201   [8]  FF FC 42 BA 19 00 FF FF
2024-07-28 12:20:38,381 INFO main(33)   can0  09F80101   [8]  71 0C 76 18 F9 F6 2B D4
2024-07-28 12:20:38,381 INFO main(33)   can0  0DF90B01   [8]  FF FC 47 BA 18 00 FF FF
2024-07-28 12:20:38,414 INFO main(33)   can0  1CFF1A73   [8]  3B 9F 00 00 FF FF FF FF
2024-07-28 12:20:38,415 INFO main(33)   can0  09F50373   [8]  00 00 00 FF FF 00 FF FF
2024-07-28 12:20:38,440 INFO main(33)   can0  15FD0773   [8]  00 C0 AF 73 FF 7F FF FF
2024-07-28 12:20:38,480 INFO main(33)   can0  09F80101   [8]  71 0C 76 18 F9 F6 2B D4
2024-07-28 12:20:38,581 INFO main(33)   can0  09F80201   [8]  FF FC F1 BA 18 00 FF FF
2024-07-28 12:20:38,581 INFO main(33)   can0  0DFE1101   [8]  40 0E C0 87 F1 BA 18 00
2024-07-28 12:20:38,582 INFO main(33)   can0  0DFE1101   [8]  41 FF FF FF FF 47 BA 18
2024-07-28 12:20:38,583 INFO main(33)   can0  0DFE1101   [8]  42 00 FF FF FF FF FF FF
2024-07-28 12:20:38,584 INFO main(33)   can0  09F80101   [8]  75 0C 76 18 FF F6 2B D4
2024-07-28 12:20:38,637 INFO main(33)   can0  09FD0273   [8]  00 F2 00 9C BD FA FF FF
2024-07-28 12:20:38,670 INFO main(33)   can0  1DEFFF73   [8]  40 16 3B 9F F0 81 90 00
2024-07-28 12:20:38,671 INFO main(33)   can0  1DEFFF73   [8]  41 03 01 00 00 40 02 08
2024-07-28 12:20:38,672 INFO main(33)   can0  1DEFFF73   [8]  42 1F 09 00 00 00 01 00
2024-07-28 12:20:38,672 INFO main(33)   can0  1DEFFF73   [8]  43 00 00 FF FF FF FF FF
2024-07-28 12:20:38,681 INFO main(33)   can0  0DF90301   [8]  FF 7F FF FF FF 7F FF FF
2024-07-28 12:20:38,682 INFO main(33)   can0  09F80101   [8]  75 0C 76 18 FF F6 2B D4
2024-07-28 12:20:38,690 INFO main(33)   can0  09F11273   [8]  00 42 9F FF 7F FF 7F FD
2024-07-28 12:20:38,690 INFO main(33)   can0  09F10D73   [8]  FF F8 FF FF 00 00 FF FF
2024-07-28 12:20:38,691 INFO main(33)   can0  1CFF4F73   [8]  3B 9F 00 FF FF 42 9F FF
2024-07-28 12:20:38,691 INFO main(33)   can0  1DEFFF73   [8]  60 16 3B 9F F0 81 9C E1
2024-07-28 12:20:38,692 INFO main(33)   can0  1DEFFF73   [8]  61 1A 00 00 00 40 02 08
2024-07-28 12:20:38,693 INFO main(33)   can0  1DEFFF73   [8]  62 1F 09 00 00 00 01 00
2024-07-28 12:20:38,693 INFO main(33)   can0  1DEFFF73   [8]  63 00 00 FF FF FF FF FF
2024-07-28 12:20:38,774 INFO main(33)   can0  19F51373   [8]  80 0E FF FF FF FF FF FF
2024-07-28 12:20:38,774 INFO main(33)   can0  19F51373   [8]  81 44 06 35 02 00 00 00
2024-07-28 12:20:38,775 INFO main(33)   can0  19F51373   [8]  82 00 FF FF FF FF FF FF
2024-07-28 12:20:38,775 INFO main(33)   can0  1DFF6773   [8]  A0 0B 3B 9F 03 00 04 E2
2024-07-28 12:20:38,776 INFO main(33)   can0  1DFF6773   [8]  A1 94 0F 19 09 09 FF FF
2024-07-28 12:20:38,777 INFO main(33)   can0  1DFF6773   [8]  C0 0B 3B 9F 03 01 04 E2
2024-07-28 12:20:38,777 INFO main(33)   can0  1DFF6773   [8]  C1 94 0F 19 09 09 FF FF
2024-07-28 12:20:38,778 INFO main(33)   can0  1DFF6773   [8]  E0 0B 3B 9F 03 02 04 E2
2024-07-28 12:20:38,778 INFO main(33)   can0  1DFF6773   [8]  E1 94 0F 19 09 09 FF FF
2024-07-28 12:20:38,781 INFO main(33)   can0  09F80201   [8]  FF FC F1 BA 18 00 FF FF
2024-07-28 12:20:38,782 INFO main(33)   can0  09F80101   [8]  72 0C 76 18 03 F7 2B D4
2024-07-28 12:20:38,783 INFO main(33)   can0  19FA0601   [8]  40 0F 87 CF 01 00 00 00
2024-07-28 12:20:38,784 INFO main(33)   can0  19FA0601   [8]  41 00 00 00 00 00 00 00
2024-07-28 12:20:38,785 INFO main(33)   can0  19FA0601   [8]  42 00 00 FF FF FF FF FF
2024-07-28 12:20:38,883 INFO main(33)   can0  19FA0401   [8]  A0 B7 16 FF 0F 05 22 33
2024-07-28 12:20:38,884 INFO main(33)   can0  19FA0401   [8]  A1 F0 ED F0 0A 00 00 00
2024-07-28 12:20:38,884 INFO main(33)   can0  19FA0401   [8]  A2 00 F2 06 0C 02 5C 4C
2024-07-28 12:20:38,885 INFO main(33)   can0  19FA0401   [8]  A3 B0 04 00 00 00 00 F1
2024-07-28 12:20:38,886 INFO main(33)   can0  19FA0401   [8]  A4 07 C6 04 C5 22 8C 0A
2024-07-28 12:20:38,887 INFO main(33)   can0  19FA0401   [8]  A5 00 00 00 00 F2 0B F4
2024-07-28 12:20:38,887 INFO main(33)   can0  19FA0401   [8]  A6 1B 2D 44 A0 0F 00 00
2024-07-28 12:20:38,888 INFO main(33)   can0  19FA0401   [8]  A7 00 00 F2 0D 17 22 E7
2024-07-28 12:20:38,889 INFO main(33)   can0  19FA0401   [8]  A8 64 D0 07 00 00 00 00
2024-07-28 12:20:38,890 INFO main(33)   can0  19FA0401   [8]  A9 F2 0F 2E 17 A0 85 1C
2024-07-28 12:20:38,891 INFO main(33)   can0  19FA0401   [8]  AA 0C 00 00 00 00 F2 12
2024-07-28 12:20:38,891 INFO main(33)   can0  19FA0401   [8]  AB E9 0A 88 CC 54 0B 00
2024-07-28 12:20:38,892 INFO main(33)   can0  19FA0401   [8]  AC 00 00 00 F2 14 D1 24
2024-07-28 12:20:38,893 INFO main(33)   can0  19FA0401   [8]  AD C5 22 54 0B 00 00 00
2024-07-28 12:20:38,894 INFO main(33)   can0  19FA0401   [8]  AE 00 F2 19 69 03 94 A1
2024-07-28 12:20:38,895 INFO main(33)   can0  19FA0401   [8]  AF 54 0B 00 00 00 00 F2
2024-07-28 12:20:38,895 INFO main(33)   can0  19FA0401   [8]  B0 1D 8B 27 E5 BE 74 0E
2024-07-28 12:20:38,896 INFO main(33)   can0  19FA0401   [8]  B1 00 00 00 00 F2 1E 80
2024-07-28 12:20:38,897 INFO main(33)   can0  19FA0401   [8]  B2 07 E8 37 C4 09 00 00
2024-07-28 12:20:38,898 INFO main(33)   can0  19FA0401   [8]  B3 00 00 F2 21 3A 0A 5C
2024-07-28 12:20:38,899 INFO main(33)   can0  19FA0401   [8]  B4 4C 00 00 00 00 00 00
2024-07-28 12:20:38,899 INFO main(33)   can0  19FA0401   [8]  B5 F0 23 C6 04 DA AD 00
2024-07-28 12:20:38,900 INFO main(33)   can0  19FA0401   [8]  B6 00 00 00 00 00 F0 33
2024-07-28 12:20:38,901 INFO main(33)   can0  19FA0401   [8]  B7 23 15 66 99 00 00 00
2024-07-28 12:20:38,902 INFO main(33)   can0  19FA0401   [8]  B8 00 00 00 F0 1A 00 00
2024-07-28 12:20:38,903 INFO main(33)   can0  19FA0401   [8]  B9 CD D8 00 00 00 00 00
2024-07-28 12:20:38,903 INFO main(33)   can0  19FA0401   [8]  BA 00 F0 FF FF FF FF FF
2024-07-28 12:20:38,904 INFO main(33)   can0  09F80101   [8]  72 0C 76 18 03 F7 2B D4
2024-07-28 12:20:38,905 INFO main(33)   can0  19F11A01   [8]  FF FF FF FF A9 F6 FF FF
2024-07-28 12:20:38,983 INFO main(33)   can0  09F80201   [8]  FF FC 5A BB 18 00 FF FF
2024-07-28 12:20:38,984 INFO main(33)   can0  09F80101   [8]  72 0C 76 18 03 F7 2B D4
2024-07-28 12:20:39,083 INFO main(33)   can0  0DF80501   [8]  60 2B 88 DC 4D F6 15 12
2024-07-28 12:20:39,084 INFO main(33)   can0  0DF80501   [8]  61 23 00 2A CB AC 2E FF
2024-07-28 12:20:39,085 INFO main(33)   can0  0DF80501   [8]  62 B1 05 00 BC 86 AC CB
2024-07-28 12:20:39,086 INFO main(33)   can0  0DF80501   [8]  63 A1 CB F5 FF FF FF FF
2024-07-28 12:20:39,086 INFO main(33)   can0  0DF80501   [8]  64 FF FF FF 7F 13 FC 0A
2024-07-28 12:20:39,087 INFO main(33)   can0  0DF80501   [8]  65 62 00 FF 7F FF FF FF
2024-07-28 12:20:39,088 INFO main(33)   can0  0DF80501   [8]  66 7F 00 FF FF FF FF FF
2024-07-28 12:20:39,089 INFO main(33)   can0  09F80101   [8]  71 0C 76 18 06 F7 2B D4
2024-07-28 12:20:39,090 INFO main(33)   can0  0DF80901   [8]  DC 4D F6 15 12 23 10 FF
2024-07-28 12:20:39,184 INFO main(33)   can0  09F80201   [8]  FF FC 9F BB 18 00 FF FF
2024-07-28 12:20:39,185 INFO main(33)   can0  09F80101   [8]  71 0C 76 18 06 F7 2B D4
2024-07-28 12:20:39,185 INFO main(33)   can0  0DF01001   [8]  FF FF DC 4D F6 15 12 23
2024-07-28 12:20:39,201 INFO main(33)   can0  1DEFFF73   [8]  00 16 3B 9F F0 81 84 E6
2024-07-28 12:20:39,202 INFO main(33)   can0  1DEFFF73   [8]  01 9A 6B 00 00 00 02 08
2024-07-28 12:20:39,202 INFO main(33)   can0  1DEFFF73   [8]  02 FF FF 00 00 00 01 00
2024-07-28 12:20:39,203 INFO main(33)   can0  1DEFFF73   [8]  03 00 00 FF FF FF FF FF
2024-07-28 12:20:39,203 INFO main(33)   can0  09F11273   [8]  00 42 9F FF 7F FF 7F FD
2024-07-28 12:20:39,204 INFO main(33)   can0  09F10D73   [8]  FF F8 FF FF 00 00 FF FF
2024-07-28 12:20:39,205 INFO main(33)   can0  1CFF0873   [8]  3B 9F 00 00 14 00 FF FF
2024-07-28 12:20:39,205 INFO main(33)   can0  1CFF4F73   [8]  3B 9F 00 FF FF 42 9F FF
2024-07-28 12:20:39,284 INFO main(33)   can0  09F80101   [8]  71 0C 76 18 06 F7 2B D4
2024-07-28 12:20:39,291 INFO main(33)   can0  1DEFFF73   [8]  20 16 3B 9F F0 81 AE 02
2024-07-28 12:20:39,292 INFO main(33)   can0  1DEFFF73   [8]  21 00 08 00 00 00 02 08
2024-07-28 12:20:39,294 INFO main(33)   can0  1DEFFF73   [8]  22 1F 09 00 00 00 01 00
2024-07-28 12:20:39,294 INFO main(33)   can0  1DEFFF73   [8]  23 00 00 FF FF FF FF FF
2024-07-28 12:20:39,323 INFO main(33)   can0  0DF50B73   [8]  00 E5 00 00 00 FF FF FF
2024-07-28 12:20:39,344 INFO main(33)   can0  09F50373   [8]  00 00 00 FF FF 00 FF FF
2024-07-28 12:20:39,367 INFO main(33)   can0  15FD0773   [8]  00 C0 AF 73 FF 7F FF FF
2024-07-28 12:20:39,385 INFO main(33)   can0  09F80201   [8]  FF FC D4 BB 18 00 FF FF
2024-07-28 12:20:39,386 INFO main(33)   can0  09F80101   [8]  74 0C 76 18 0B F7 2B D4
2024-07-28 12:20:39,387 INFO main(33)   can0  0DF90B01   [8]  FF FC 5D BC 17 00 FF FF
2024-07-28 12:20:39,413 INFO main(33)   can0  1CFF1A73   [8]  3B 9F 00 00 FF FF FF FF
2024-07-28 12:20:39,414 INFO main(33)   can0  09F50373   [8]  00 00 00 FF FF 00 FF FF
2024-07-28 12:20:39,438 INFO main(33)   can0  15FD0773   [8]  00 C0 AF 73 FF 7F FF FF
2024-07-28 12:20:39,485 INFO main(33)   can0  09F80101   [8]  74 0C 76 18 0B F7 2B D4
2024-07-28 12:20:39,587 INFO main(33)   can0  09F80201   [8]  FF FC D4 BB 18 00 FF FF
2024-07-28 12:20:39,587 INFO main(33)   can0  0DFE1101   [8]  60 0E C0 88 D4 BB 18 00
2024-07-28 12:20:39,588 INFO main(33)   can0  0DFE1101   [8]  61 FF FF FF FF 5D BC 17
2024-07-28 12:20:39,589 INFO main(33)   can0  0DFE1101   [8]  62 00 FF FF FF FF FF FF
2024-07-28 12:20:39,590 INFO main(33)   can0  09F80101   [8]  75 0C 76 18 0D F7 2B D4
2024-07-28 12:20:39,605 INFO main(33)   can0  09FD0273   [8]  00 E8 00 26 A9 FA FF FF
2024-07-28 12:20:39,687 INFO main(33)   can0  0DF90301   [8]  FF 7F FF FF FF 7F FF FF
2024-07-28 12:20:39,688 INFO main(33)   can0  09F80101   [8]  75 0C 76 18 0D F7 2B D4
2024-07-28 12:20:39,689 INFO main(33)   can0  09F10D73   [8]  FF F8 FF FF 00 00 FF FF
2024-07-28 12:20:39,690 INFO main(33)   can0  1CFF4F73   [8]  3B 9F 00 FF FF 42 9F FF
2024-07-28 12:20:39,691 INFO main(33)   can0  1DEFFF73   [8]  40 16 3B 9F F0 81 9C E1
2024-07-28 12:20:39,691 INFO main(33)   can0  1DEFFF73   [8]  41 1A 00 00 00 40 02 08
2024-07-28 12:20:39,692 INFO main(33)   can0  1DEFFF73   [8]  42 1F 09 00 00 00 01 00
2024-07-28 12:20:39,692 INFO main(33)   can0  1DEFFF73   [8]  43 00 00 FF FF FF FF FF
2024-07-28 12:20:39,693 INFO main(33)   can0  09F11273   [8]  00 42 9F FF 7F FF 7F FD
2024-07-28 12:20:39,772 INFO main(33)   can0  19F51373   [8]  60 0E FF FF FF FF FF FF
2024-07-28 12:20:39,773 INFO main(33)   can0  19F51373   [8]  61 44 06 35 02 00 00 00
2024-07-28 12:20:39,773 INFO main(33)   can0  19F51373   [8]  62 00 FF FF FF FF FF FF
2024-07-28 12:20:39,774 INFO main(33)   can0  1DFF6773   [8]  80 0B 3B 9F 03 00 04 E2
2024-07-28 12:20:39,774 INFO main(33)   can0  1DFF6773   [8]  81 94 0F 19 09 09 FF FF
2024-07-28 12:20:39,775 INFO main(33)   can0  1DFF6773   [8]  A0 0B 3B 9F 03 01 04 E2
2024-07-28 12:20:39,776 INFO main(33)   can0  1DFF6773   [8]  A1 94 0F 19 09 09 FF FF
2024-07-28 12:20:39,776 INFO main(33)   can0  1DFF6773   [8]  C0 0B 3B 9F 03 02 04 E2
2024-07-28 12:20:39,777 INFO main(33)   can0  1DFF6773   [8]  C1 94 0F 19 09 09 FF FF
2024-07-28 12:20:39,787 INFO main(33)   can0  09F80201   [8]  FF FC D4 BB 18 00 FF FF
2024-07-28 12:20:39,788 INFO main(33)   can0  09F80101   [8]  75 0C 76 18 0D F7 2B D4
2024-07-28 12:20:39,789 INFO main(33)   can0  19FA0601   [8]  60 0F 88 EE 01 00 00 00
2024-07-28 12:20:39,790 INFO main(33)   can0  19FA0601   [8]  61 00 00 00 00 00 00 00
2024-07-28 12:20:39,790 INFO main(33)   can0  19FA0601   [8]  62 00 00 FF FF FF FF FF
2024-07-28 12:20:39,888 INFO main(33)   can0  19FA0401   [8]  C0 B7 17 FF 0F 05 22 33
2024-07-28 12:20:39,888 INFO main(33)   can0  19FA0401   [8]  C1 F0 ED F0 0A 00 00 00
2024-07-28 12:20:39,889 INFO main(33)   can0  19FA0401   [8]  C2 00 F2 06 0C 02 5C 4C
2024-07-28 12:20:39,890 INFO main(33)   can0  19FA0401   [8]  C3 B0 04 00 00 00 00 F1
2024-07-28 12:20:39,891 INFO main(33)   can0  19FA0401   [8]  C4 07 C6 04 C5 22 8C 0A
2024-07-28 12:20:39,892 INFO main(33)   can0  19FA0401   [8]  C5 00 00 00 00 F2 0B F4
2024-07-28 12:20:39,893 INFO main(33)   can0  19FA0401   [8]  C6 1B 2D 44 A0 0F 00 00
2024-07-28 12:20:39,893 INFO main(33)   can0  19FA0401   [8]  C7 00 00 F2 0D 17 22 E7
2024-07-28 12:20:39,894 INFO main(33)   can0  19FA0401   [8]  C8 64 D0 07 00 00 00 00
2024-07-28 12:20:39,895 INFO main(33)   can0  19FA0401   [8]  C9 F2 0F 2E 17 A0 85 1C
2024-07-28 12:20:39,896 INFO main(33)   can0  19FA0401   [8]  CA 0C 00 00 00 00 F2 12
2024-07-28 12:20:39,897 INFO main(33)   can0  19FA0401   [8]  CB E9 0A 88 CC 54 0B 00
2024-07-28 12:20:39,897 INFO main(33)   can0  19FA0401   [8]  CC 00 00 00 F2 14 D1 24
2024-07-28 12:20:39,898 INFO main(33)   can0  19FA0401   [8]  CD C5 22 54 0B 00 00 00
2024-07-28 12:20:39,899 INFO main(33)   can0  19FA0401   [8]  CE 00 F2 19 69 03 94 A1
2024-07-28 12:20:39,900 INFO main(33)   can0  19FA0401   [8]  CF 54 0B 00 00 00 00 F2
2024-07-28 12:20:39,901 INFO main(33)   can0  19FA0401   [8]  D0 1D 8B 27 E5 BE 74 0E
2024-07-28 12:20:39,901 INFO main(33)   can0  19FA0401   [8]  D1 00 00 00 00 F2 1E 80
2024-07-28 12:20:39,902 INFO main(33)   can0  19FA0401   [8]  D2 07 E8 37 C4 09 00 00
2024-07-28 12:20:39,903 INFO main(33)   can0  19FA0401   [8]  D3 00 00 F2 21 3A 0A 5C
2024-07-28 12:20:39,904 INFO main(33)   can0  19FA0401   [8]  D4 4C 00 00 00 00 00 00
2024-07-28 12:20:39,905 INFO main(33)   can0  19FA0401   [8]  D5 F0 23 C6 04 DA AD 00
2024-07-28 12:20:39,905 INFO main(33)   can0  19FA0401   [8]  D6 00 00 00 00 00 F0 33
2024-07-28 12:20:39,906 INFO main(33)   can0  19FA0401   [8]  D7 23 15 66 99 00 00 00
2024-07-28 12:20:39,907 INFO main(33)   can0  19FA0401   [8]  D8 00 00 00 F0 1A 00 00
2024-07-28 12:20:39,908 INFO main(33)   can0  19FA0401   [8]  D9 CD D8 00 00 00 00 00
2024-07-28 12:20:39,909 INFO main(33)   can0  19FA0401   [8]  DA 00 F0 FF FF FF FF FF
2024-07-28 12:20:39,910 INFO main(33)   can0  09F80101   [8]  72 0C 76 18 11 F7 2B D4
2024-07-28 12:20:39,910 INFO main(33)   can0  19F11A01   [8]  FF FF FF FF A9 F6 FF FF
2024-07-28 12:20:39,916 INFO main(33)   can0  11F80E00   [8]  A0 1C 01 92 33 E8 15 F2
2024-07-28 12:20:39,921 INFO main(33)   can0  11F80E00   [8]  A1 30 22 D4 70 BC 65 18
2024-07-28 12:20:39,926 INFO main(33)   can0  11F80E00   [8]  A2 A0 10 2A D9 01 F1 C0
2024-07-28 12:20:39,931 INFO main(33)   can0  11F80E00   [8]  A3 08 F3 2A 00 00 C0 F8
2024-07-28 12:20:39,936 INFO main(33)   can0  11F80E00   [2]  A4 FF
2024-07-28 12:20:39,988 INFO main(33)   can0  09F80201   [8]  FF FC 9F BB 18 00 FF FF
2024-07-28 12:20:39,989 INFO main(33)   can0  09F80101   [8]  72 0C 76 18 11 F7 2B D4
2024-07-28 12:20:40,089 INFO main(33)   can0  0DF80501   [8]  80 2B 89 DC 4D 3E 32 12
2024-07-28 12:20:40,090 INFO main(33)   can0  0DF80501   [8]  81 23 00 F4 65 E8 2E FF
2024-07-28 12:20:40,090 INFO main(33)   can0  0DF80501   [8]  82 B1 05 00 6A 2D 3C CE
2024-07-28 12:20:40,091 INFO main(33)   can0  0DF80501   [8]  83 A1 CB F5 FF FF FF FF
2024-07-28 12:20:40,092 INFO main(33)   can0  0DF80501   [8]  84 FF FF FF 7F 13 FC 0A
2024-07-28 12:20:40,093 INFO main(33)   can0  0DF80501   [8]  85 62 00 FF 7F FF FF FF
2024-07-28 12:20:40,094 INFO main(33)   can0  0DF80501   [8]  86 7F 00 FF FF FF FF FF
2024-07-28 12:20:40,094 INFO main(33)   can0  09F80101   [8]  72 0C 76 18 11 F7 2B D4
2024-07-28 12:20:40,095 INFO main(33)   can0  0DF80901   [8]  DC 4D 3E 32 12 23 10 FF
2024-07-28 12:20:40,189 INFO main(33)   can0  09F80201   [8]  FF FC 6B BB 18 00 FF FF
2024-07-28 12:20:40,190 INFO main(33)   can0  09F80101   [8]  69 0C 76 18 19 F7 2B D4
2024-07-28 12:20:40,190 INFO main(33)   can0  0DF01001   [8]  FF FF DC 4D F8 45 12 23
2024-07-28 12:20:40,201 INFO main(33)   can0  1DEFFF73   [8]  E0 16 3B 9F F0 81 84 E6
2024-07-28 12:20:40,201 INFO main(33)   can0  1DEFFF73   [8]  E1 9A 6B 00 00 00 02 08
2024-07-28 12:20:40,202 INFO main(33)   can0  1DEFFF73   [8]  E2 FF FF 00 00 00 01 00
2024-07-28 12:20:40,203 INFO main(33)   can0  1DEFFF73   [8]  E3 00 00 FF FF FF FF FF
2024-07-28 12:20:40,204 INFO main(33)   can0  09F11273   [8]  00 42 9F FF 7F FF 7F FD
2024-07-28 12:20:40,205 INFO main(33)   can0  09F10D73   [8]  FF F8 FF FF 00 00 FF FF
2024-07-28 12:20:40,205 INFO main(33)   can0  1CFF0873   [8]  3B 9F 00 00 14 00 FF FF
2024-07-28 12:20:40,206 INFO main(33)   can0  1CFF4F73   [8]  3B 9F 00 FF FF 42 9F FF
2024-07-28 12:20:40,290 INFO main(33)   can0  09F80101   [8]  69 0C 76 18 19 F7 2B D4
2024-07-28 12:20:40,291 INFO main(33)   can0  1DEFFF73   [8]  00 16 3B 9F F0 81 AE 02
2024-07-28 12:20:40,292 INFO main(33)   can0  1DEFFF73   [8]  01 00 08 00 00 00 02 08
2024-07-28 12:20:40,292 INFO main(33)   can0  1DEFFF73   [8]  02 1F 09 00 00 00 01 00
2024-07-28 12:20:40,293 INFO main(33)   can0  1DEFFF73   [8]  03 00 00 FF FF FF FF FF
2024-07-28 12:20:40,322 INFO main(33)   can0  0DF50B73   [8]  00 EE 00 00 00 FF FF FF
2024-07-28 12:20:40,350 INFO main(33)   can0  09F50373   [8]  00 00 00 FF FF 00 FF FF
2024-07-28 12:20:40,374 INFO main(33)   can0  15FD0773   [8]  00 C0 AF 73 FF 7F FF FF
2024-07-28 12:20:40,392 INFO main(33)   can0  09F80201   [8]  FF FC 6B BB 18 00 FF FF
2024-07-28 12:20:40,393 INFO main(33)   can0  09F80101   [8]  69 0C 76 18 19 F7 2B D4
2024-07-28 12:20:40,393 INFO main(33)   can0  0DF90B01   [8]  FF FC 5D BC 17 00 FF FF
2024-07-28 12:20:40,425 INFO main(33)   can0  1CFF1A73   [8]  3B 9F 00 00 FF FF FF FF
2024-07-28 12:20:40,426 INFO main(33)   can0  09F50373   [8]  00 00 00 FF FF 00 FF FF
2024-07-28 12:20:40,446 INFO main(33)   can0  15FD0773   [8]  00 C0 AF 73 FF 7F FF FF
2024-07-28 12:20:40,490 INFO main(33)   can0  09F80101   [8]  63 0C 76 18 1E F7 2B D4
2024-07-28 12:20:40,583 INFO main(33)   can0  09FD0273   [8]  00 F7 00 CA B6 FA FF FF
2024-07-28 12:20:40,591 INFO main(33)   can0  09F80201   [8]  FF FC F1 BA 18 00 FF FF
2024-07-28 12:20:40,591 INFO main(33)   can0  0DFE1101   [8]  80 0E C0 89 F1 BA 18 00
2024-07-28 12:20:40,592 INFO main(33)   can0  0DFE1101   [8]  81 FF FF FF FF C5 BA 17
2024-07-28 12:20:40,593 INFO main(33)   can0  0DFE1101   [8]  82 00 FF FF FF FF FF FF
2024-07-28 12:20:40,595 INFO main(33)   can0  09F80101   [8]  63 0C 76 18 1E F7 2B D4
